
T6E70 1337:347 SEGGER J-Link V6.32i Log File (0001ms, 0007ms total)
T6E70 1337:347 DLL Compiled: Jul 24 2018 15:19:55 (0001ms, 0007ms total)
T6E70 1337:347 Logging started @ 2022-06-18 15:49 (0001ms, 0007ms total)
T6E70 1337:348 JLINK_SetWarnOutHandler(...) (0000ms, 0007ms total)
T6E70 1337:348 JLINK_OpenEx(...)
Firmware: J-Link ARM V8 compiled Nov 28 2014 13:44:46
Hardware: V8.00
Feature(s): RDI,FlashDL,FlashBP,JFlash,GDB
TELNET listener socket opened on port 19021WEBSRV 
Starting webserver (0037ms, 0044ms total)
T6E70 1337:348 WEBSRV Webserver running on local port 19080 (0037ms, 0044ms total)
T6E70 1337:348   returns O.K. (0037ms, 0044ms total)
T6E70 1337:386 JLINK_GetEmuCaps()  returns 0xB9FF7BBF (0000ms, 0044ms total)
T6E70 1337:386 JLINK_TIF_GetAvailable(...) (0000ms, 0044ms total)
T6E70 1337:386 JLINK_SetErrorOutHandler(...) (0000ms, 0044ms total)
T6E70 1337:386 JLINK_ExecCommand("ProjectFile = "C:\Users\Administrator\Desktop\²âÊÔDEMO\02-128CTP³ÌÐòÔ´Âë\05-1.28IPSÏÔÊ¾ÆÁSTM32F407ZG_SPIÀý³Ì\USER\JLinkSettings.ini"", ...).   returns 0x00 (0012ms, 0056ms total)
T6E70 1337:407 JLINK_ExecCommand("Device = STM32F407ZG", ...). Device "STM32F407ZG" selected.  returns 0x00 (0007ms, 0063ms total)
T6E70 1337:414 JLINK_ExecCommand("DisableConnectionTimeout", ...).   returns 0x01 (0000ms, 0063ms total)
T6E70 1337:414 JLINK_GetHardwareVersion()  returns 0x13880 (0000ms, 0063ms total)
T6E70 1337:414 JLINK_GetDLLVersion()  returns 63209 (0000ms, 0063ms total)
T6E70 1337:414 JLINK_GetFirmwareString(...) (0000ms, 0063ms total)
T6E70 1337:442 JLINK_GetDLLVersion()  returns 63209 (0000ms, 0063ms total)
T6E70 1337:442 JLINK_GetCompileDateTime() (0000ms, 0063ms total)
T6E70 1337:448 JLINK_GetFirmwareString(...) (0000ms, 0063ms total)
T6E70 1337:453 JLINK_GetHardwareVersion()  returns 0x13880 (0000ms, 0063ms total)
T6E70 1337:465 JLINK_TIF_Select(JLINKARM_TIF_JTAG)  returns 0x00 (0001ms, 0064ms total)
T6E70 1337:467 JLINK_SetSpeed(5000) (0000ms, 0065ms total)
T6E70 1337:467 JLINK_GetIdData(...) >0x2F8 JTAG>TotalIRLen = 9, IRPrint = 0x0011 >0x30 JTAG> >0x50 JTAG>JTAG chain detection found 2 devices: #0 Id: 0x4BA00477, IRLen: 04, CoreSight JTAG-DP #1 Id: 0x06413041, IRLen: 05, STM32 Boundary Scan >0x40 JTAG> >0x40 JTAG> >0x40 JTAG> >0x30 JTAG> >0x40 JTAG> >0x40 JTAG> >0x40 JTAG> >0x40 JTAG> >0x40 JTAG> >0x40 JTAG> >0x40 JTAG> >0x40 JTAG> >0x40 JTAG> >0x40 JTAG> >0x40 JTAG> >0x40 JTAG> >0x40 JTAG> >0x40 JTAG> >0x40 JTAG> >0x40 JTAG> >0x40 JTAG> >0x40 JTAG>
 >0x40 JTAG> >0x40 JTAG> >0x40 JTAG> >0x40 JTAG> >0x40 JTAG> >0x40 JTAG> >0x2F8 JTAG>TotalIRLen = 9, IRPrint = 0x0011 >0x30 JTAG> >0x50 JTAG>JTAG chain detection found 2 devices: #0 Id: 0x4BA00477, IRLen: 04, CoreSight JTAG-DP #1 Id: 0x06413041, IRLen: 05, STM32 Boundary ScanScanning AP map to find all available APs >0x80 JTAG> >0x50 JTAG> >0x40 JTAG> >0x40 JTAG> >0x50 JTAG> >0x40 JTAG>AP[1]: Stopped AP scan as end of AP map has been reachedAP[0]: AHB-AP (IDR: 0x24770011)
Iterating through AP map to find AHB-AP to use >0x80 JTAG> >0x50 JTAG> >0x50 JTAG> >0x80 JTAG> >0x40 JTAG> >0x30 JTAG> >0x40 JTAG> >0x40 JTAG>AP[0]: Core foundAP[0]: AHB-AP ROM base: 0xE00FF000 >0x40 JTAG> >0x40 JTAG> >0x30 JTAG> >0x40 JTAG> >0x40 JTAG>CPUID register: 0x410FC241. Implementer code: 0x41 (ARM)Found Cortex-M4 r0p1, Little endian. -- Max. mem block: 0x00002408 -- CPU_ReadMem(4 bytes @ 0xE000EDF0) -- CPU_WriteMem(4 bytes @ 0xE000EDF0) -- CPU_ReadMem(4 bytes @ 0xE0002000)
FPUnit: 6 code (BP) slots and 2 literal slots -- CPU_ReadMem(4 bytes @ 0xE000EDFC) -- CPU_WriteMem(4 bytes @ 0xE000EDFC) -- CPU_ReadMem(4 bytes @ 0xE0001000) -- CPU_WriteMem(4 bytes @ 0xE0001000) -- CPU_ReadMem(4 bytes @ 0xE000ED88) -- CPU_WriteMem(4 bytes @ 0xE000ED88) -- CPU_ReadMem(4 bytes @ 0xE000ED88) -- CPU_WriteMem(4 bytes @ 0xE000ED88)CoreSight components:ROMTbl[0] @ E00FF000 -- CPU_ReadMem(16 bytes @ 0xE00FF000) -- CPU_ReadMem(16 bytes @ 0xE000EFF0) -- CPU_ReadMem(16 bytes @ 0xE000EFE0)
ROMTbl[0][0]: E000E000, CID: B105E00D, PID: 000BB00C SCS-M7 -- CPU_ReadMem(16 bytes @ 0xE0001FF0) -- CPU_ReadMem(16 bytes @ 0xE0001FE0)ROMTbl[0][1]: E0001000, CID: B105E00D, PID: 003BB002 DWT -- CPU_ReadMem(16 bytes @ 0xE0002FF0) -- CPU_ReadMem(16 bytes @ 0xE0002FE0)ROMTbl[0][2]: E0002000, CID: B105E00D, PID: 002BB003 FPB -- CPU_ReadMem(16 bytes @ 0xE0000FF0) -- CPU_ReadMem(16 bytes @ 0xE0000FE0)ROMTbl[0][3]: E0000000, CID: B105E00D, PID: 003BB001 ITM -- CPU_ReadMem(16 bytes @ 0xE00FF010)
 -- CPU_ReadMem(16 bytes @ 0xE0040FF0) -- CPU_ReadMem(16 bytes @ 0xE0040FE0)ROMTbl[0][4]: E0040000, CID: B105900D, PID: 000BB9A1 TPIU -- CPU_ReadMem(16 bytes @ 0xE0041FF0) -- CPU_ReadMem(16 bytes @ 0xE0041FE0)ROMTbl[0][5]: E0041000, CID: B105900D, PID: 000BB925 ETM ScanLen=9 NumDevices=2 aId[0]=0x4BA00477 aIrRead[0]=0 aScanLen[0]=0 aScanRead[0]=0 (0230ms, 0295ms total)
T6E70 1337:697 JLINK_JTAG_GetDeviceID(DeviceIndex = 0)  returns 0x4BA00477 (0000ms, 0295ms total)
T6E70 1337:697 JLINK_JTAG_GetDeviceInfo(DeviceIndex = 0)  returns 0x00 (0000ms, 0295ms total)
T6E70 1337:697 JLINK_JTAG_GetDeviceID(DeviceIndex = 1)  returns 0x6413041 (0000ms, 0295ms total)
T6E70 1337:697 JLINK_JTAG_GetDeviceInfo(DeviceIndex = 1)  returns 0x00 (0000ms, 0295ms total)
T6E70 1337:697 JLINK_GetDLLVersion()  returns 63209 (0000ms, 0295ms total)
T6E70 1337:697 JLINK_CORE_GetFound()  returns 0xE0000FF (0000ms, 0295ms total)
T6E70 1337:697 JLINK_GetDebugInfo(0x100 = JLINKARM_ROM_TABLE_ADDR_INDEX) -- Value=0xE00FF000  returns 0x00 (0000ms, 0295ms total)
T6E70 1337:701 JLINK_GetDebugInfo(0x100 = JLINKARM_ROM_TABLE_ADDR_INDEX) -- Value=0xE00FF000  returns 0x00 (0000ms, 0295ms total)
T6E70 1337:701 JLINK_GetDebugInfo(0x101 = JLINKARM_DEBUG_INFO_ETM_ADDR_INDEX) -- Value=0xE0041000  returns 0x00 (0000ms, 0295ms total)
T6E70 1337:701 JLINK_ReadMemEx(0xE0041FD0, 0x0020 Bytes, ..., Flags = 0x02000004) -- CPU_ReadMem(32 bytes @ 0xE0041FD0) - Data: 04 00 00 00 00 00 00 00 00 00 00 00 00 00 00 00 ...  returns 0x20 (0002ms, 0297ms total)
T6E70 1337:703 JLINK_GetDebugInfo(0x102 = JLINKARM_DEBUG_INFO_MTB_ADDR_INDEX) -- Value=0x00000000  returns 0x00 (0000ms, 0297ms total)
T6E70 1337:703 JLINK_GetDebugInfo(0x103 = JLINKARM_DEBUG_INFO_TPIU_ADDR_INDEX) -- Value=0xE0040000  returns 0x00 (0000ms, 0297ms total)
T6E70 1337:703 JLINK_GetDebugInfo(0x104 = JLINKARM_DEBUG_INFO_ITM_ADDR_INDEX) -- Value=0xE0000000  returns 0x00 (0000ms, 0297ms total)
T6E70 1337:703 JLINK_GetDebugInfo(0x105 = JLINKARM_DEBUG_INFO_DWT_ADDR_INDEX) -- Value=0xE0001000  returns 0x00 (0000ms, 0297ms total)
T6E70 1337:703 JLINK_GetDebugInfo(0x106 = JLINKARM_DEBUG_INFO_FPB_ADDR_INDEX) -- Value=0xE0002000  returns 0x00 (0000ms, 0297ms total)
T6E70 1337:703 JLINK_GetDebugInfo(0x107 = JLINKARM_DEBUG_INFO_NVIC_ADDR_INDEX) -- Value=0xE000E000  returns 0x00 (0000ms, 0297ms total)
T6E70 1337:703 JLINK_GetDebugInfo(0x10C = JLINKARM_DEBUG_INFO_DBG_ADDR_INDEX) -- Value=0xE000EDF0  returns 0x00 (0000ms, 0297ms total)
T6E70 1337:703 JLINK_GetDebugInfo(0x01 = Unknown) -- Value=0x00000001  returns 0x00 (0000ms, 0297ms total)
T6E70 1337:703 JLINK_ReadMemU32(0xE000ED00, 0x0001 Items, ...) -- CPU_ReadMem(4 bytes @ 0xE000ED00) - Data: 41 C2 0F 41  returns 0x01 (0000ms, 0297ms total)
T6E70 1337:703 JLINK_GetDebugInfo(0x10F = JLINKARM_DEBUG_INFO_HAS_CORTEX_M_SECURITY_EXT_INDEX) -- Value=0x00000000  returns 0x00 (0000ms, 0297ms total)
T6E70 1337:703 JLINK_SetResetType(JLINKARM_CM3_RESET_TYPE_NORMAL)  returns JLINKARM_CM3_RESET_TYPE_NORMAL (0000ms, 0297ms total)
T6E70 1337:703 JLINK_Reset() -- CPU is running -- CPU_WriteMem(4 bytes @ 0xE000EDF0) -- CPU is running -- CPU_WriteMem(4 bytes @ 0xE000EDFC)Reset: Halt core after reset via DEMCR.VC_CORERESET.Reset: Reset device via AIRCR.SYSRESETREQ. -- CPU is running -- CPU_WriteMem(4 bytes @ 0xE000ED0C) -- CPU_ReadMem(4 bytes @ 0xE000EDF0) -- CPU_ReadMem(4 bytes @ 0xE000EDF0) -- CPU is running -- CPU_WriteMem(4 bytes @ 0xE000EDF0) -- CPU is running -- CPU_WriteMem(4 bytes @ 0xE000EDFC)
 -- CPU_ReadMem(4 bytes @ 0xE000EDF0) -- CPU_WriteMem(4 bytes @ 0xE000EDFC) -- CPU_WriteMem(4 bytes @ 0xE0001028) -- CPU_WriteMem(4 bytes @ 0xE0001038) -- CPU_WriteMem(4 bytes @ 0xE0001048) -- CPU_WriteMem(4 bytes @ 0xE0001058) -- CPU_WriteMem(4 bytes @ 0xE0002000) -- CPU_ReadMem(4 bytes @ 0xE000EDFC) -- CPU_ReadMem(4 bytes @ 0xE0001000) (0075ms, 0372ms total)
T6E70 1337:778 JLINK_Halt()  returns 0x00 (0000ms, 0372ms total)
T6E70 1337:778 JLINK_ReadMemU32(0xE000EDF0, 0x0001 Items, ...) -- CPU_ReadMem(4 bytes @ 0xE000EDF0) - Data: 03 00 03 00  returns 0x01 (0001ms, 0373ms total)
T6E70 1337:779 JLINK_WriteU32(0xE000EDF0, 0xA05F0003) -- CPU_WriteMem(4 bytes @ 0xE000EDF0)  returns 0x00 (0000ms, 0373ms total)
T6E70 1337:779 JLINK_WriteU32(0xE000EDFC, 0x01000000) -- CPU_WriteMem(4 bytes @ 0xE000EDFC)  returns 0x00 (0000ms, 0373ms total)
T6E70 1337:815 JLINK_GetHWStatus(...)  returns 0x00 (0000ms, 0373ms total)
T6E70 1337:825 JLINK_GetNumBPUnits(Type = 0xFFFFFF00)  returns 0x06 (0000ms, 0373ms total)
T6E70 1337:825 JLINK_GetNumBPUnits(Type = 0xF0)  returns 0x2000 (0000ms, 0373ms total)
T6E70 1337:825 JLINK_GetNumWPUnits()  returns 0x04 (0000ms, 0373ms total)
T6E70 1337:848 JLINK_GetSpeed()  returns 0x12C0 (0000ms, 0373ms total)
T6E70 1337:867 JLINK_ReadMemU32(0xE000E004, 0x0001 Items, ...) -- CPU_ReadMem(4 bytes @ 0xE000E004) - Data: 02 00 00 00  returns 0x01 (0000ms, 0373ms total)
T6E70 1337:867 JLINK_ReadMemU32(0xE000E004, 0x0001 Items, ...) -- CPU_ReadMem(4 bytes @ 0xE000E004) - Data: 02 00 00 00  returns 0x01 (0001ms, 0374ms total)
T6E70 1337:868 JLINK_WriteMemEx(0xE0001000, 0x001C Bytes, ..., Flags = 0x02000004) - Data: 01 00 00 00 00 00 00 00 00 00 00 00 00 00 00 00 ... -- CPU_WriteMem(28 bytes @ 0xE0001000)  returns 0x1C (0001ms, 0375ms total)
T6E70 1337:869 JLINK_Halt()  returns 0x00 (0000ms, 0375ms total)
T6E70 1337:869 JLINK_IsHalted()  returns TRUE (0000ms, 0375ms total)
T6E70 1337:873 JLINK_WriteMem(0x20000000, 0x0180 Bytes, ...) - Data: 00 BE 0A E0 0D 78 2D 06 68 40 08 24 40 00 00 D3 ... -- CPU_WriteMem(384 bytes @ 0x20000000)  returns 0x180 (0004ms, 0379ms total)
T6E70 1337:877 JLINK_WriteReg(R0, 0x08000000)  returns 0x00 (0000ms, 0379ms total)
T6E70 1337:877 JLINK_WriteReg(R1, 0x0A037A00)  returns 0x00 (0000ms, 0379ms total)
T6E70 1337:877 JLINK_WriteReg(R2, 0x00000001)  returns 0x00 (0000ms, 0379ms total)
T6E70 1337:877 JLINK_WriteReg(R3, 0x00000000)  returns 0x00 (0000ms, 0379ms total)
T6E70 1337:877 JLINK_WriteReg(R4, 0x00000000)  returns 0x00 (0000ms, 0379ms total)
T6E70 1337:877 JLINK_WriteReg(R5, 0x00000000)  returns 0x00 (0000ms, 0379ms total)
T6E70 1337:877 JLINK_WriteReg(R6, 0x00000000)  returns 0x00 (0000ms, 0379ms total)
T6E70 1337:877 JLINK_WriteReg(R7, 0x00000000)  returns 0x00 (0000ms, 0379ms total)
T6E70 1337:877 JLINK_WriteReg(R8, 0x00000000)  returns 0x00 (0000ms, 0379ms total)
T6E70 1337:877 JLINK_WriteReg(R9, 0x2000017C)  returns 0x00 (0000ms, 0379ms total)
T6E70 1337:877 JLINK_WriteReg(R10, 0x00000000)  returns 0x00 (0000ms, 0379ms total)
T6E70 1337:877 JLINK_WriteReg(R11, 0x00000000)  returns 0x00 (0000ms, 0379ms total)
T6E70 1337:877 JLINK_WriteReg(R12, 0x00000000)  returns 0x00 (0000ms, 0379ms total)
T6E70 1337:877 JLINK_WriteReg(R13 (SP), 0x20001000)  returns 0x00 (0000ms, 0379ms total)
T6E70 1337:877 JLINK_WriteReg(R14, 0x20000001)  returns 0x00 (0000ms, 0379ms total)
T6E70 1337:877 JLINK_WriteReg(R15 (PC), 0x20000054)  returns 0x00 (0000ms, 0379ms total)
T6E70 1337:877 JLINK_WriteReg(XPSR, 0x01000000)  returns 0x00 (0000ms, 0379ms total)
T6E70 1337:877 JLINK_WriteReg(MSP, 0x20001000)  returns 0x00 (0000ms, 0379ms total)
T6E70 1337:877 JLINK_WriteReg(PSP, 0x20001000)  returns 0x00 (0000ms, 0379ms total)
T6E70 1337:877 JLINK_WriteReg(CFBP, 0x00000000)  returns 0x00 (0000ms, 0379ms total)
T6E70 1337:877 JLINK_SetBPEx(Addr = 0x20000000, Type = 0xFFFFFFF2) -- CPU_ReadMem(2 bytes @ 0x20000000)  returns 0x00000001 (0001ms, 0380ms total)
T6E70 1337:878 JLINK_Go() -- CPU_WriteMem(2 bytes @ 0x20000000) -- CPU_ReadMem(4 bytes @ 0xE0001000) -- CPU_WriteMem(4 bytes @ 0xE0002008) -- CPU_WriteMem(4 bytes @ 0xE000200C) -- CPU_WriteMem(4 bytes @ 0xE0002010) -- CPU_WriteMem(4 bytes @ 0xE0002014) -- CPU_WriteMem(4 bytes @ 0xE0002018) -- CPU_WriteMem(4 bytes @ 0xE000201C) -- CPU_WriteMem(4 bytes @ 0xE0001004) (0004ms, 0384ms total)
T6E70 1337:882 JLINK_IsHalted() -- CPU_ReadMem(2 bytes @ 0x20000000)  returns TRUE (0003ms, 0387ms total)
T6E70 1337:885 JLINK_ReadReg(R15 (PC))  returns 0x20000000 (0000ms, 0384ms total)
T6E70 1337:885 JLINK_ClrBPEx(BPHandle = 0x00000001)  returns 0x00 (0000ms, 0384ms total)
T6E70 1337:885 JLINK_ReadReg(R0)  returns 0x00000000 (0000ms, 0384ms total)
T6E70 1337:886 JLINK_WriteReg(R0, 0x08000000)  returns 0x00 (0000ms, 0384ms total)
T6E70 1337:886 JLINK_WriteReg(R1, 0x00004000)  returns 0x00 (0000ms, 0384ms total)
T6E70 1337:886 JLINK_WriteReg(R2, 0x000000FF)  returns 0x00 (0000ms, 0384ms total)
T6E70 1337:886 JLINK_WriteReg(R3, 0x00000000)  returns 0x00 (0000ms, 0384ms total)
T6E70 1337:886 JLINK_WriteReg(R4, 0x00000000)  returns 0x00 (0000ms, 0384ms total)
T6E70 1337:886 JLINK_WriteReg(R5, 0x00000000)  returns 0x00 (0000ms, 0384ms total)
T6E70 1337:886 JLINK_WriteReg(R6, 0x00000000)  returns 0x00 (0000ms, 0384ms total)
T6E70 1337:886 JLINK_WriteReg(R7, 0x00000000)  returns 0x00 (0000ms, 0384ms total)
T6E70 1337:886 JLINK_WriteReg(R8, 0x00000000)  returns 0x00 (0000ms, 0384ms total)
T6E70 1337:886 JLINK_WriteReg(R9, 0x2000017C)  returns 0x00 (0000ms, 0384ms total)
T6E70 1337:886 JLINK_WriteReg(R10, 0x00000000)  returns 0x00 (0000ms, 0384ms total)
T6E70 1337:886 JLINK_WriteReg(R11, 0x00000000)  returns 0x00 (0000ms, 0384ms total)
T6E70 1337:886 JLINK_WriteReg(R12, 0x00000000)  returns 0x00 (0000ms, 0384ms total)
T6E70 1337:886 JLINK_WriteReg(R13 (SP), 0x20001000)  returns 0x00 (0000ms, 0384ms total)
T6E70 1337:886 JLINK_WriteReg(R14, 0x20000001)  returns 0x00 (0000ms, 0384ms total)
T6E70 1337:886 JLINK_WriteReg(R15 (PC), 0x20000020)  returns 0x00 (0000ms, 0384ms total)
T6E70 1337:886 JLINK_WriteReg(XPSR, 0x01000000)  returns 0x00 (0000ms, 0384ms total)
T6E70 1337:886 JLINK_WriteReg(MSP, 0x20001000)  returns 0x00 (0000ms, 0384ms total)
T6E70 1337:886 JLINK_WriteReg(PSP, 0x20001000)  returns 0x00 (0000ms, 0384ms total)
T6E70 1337:886 JLINK_WriteReg(CFBP, 0x00000000)  returns 0x00 (0000ms, 0384ms total)
T6E70 1337:886 JLINK_SetBPEx(Addr = 0x20000000, Type = 0xFFFFFFF2)  returns 0x00000002 (0000ms, 0384ms total)
T6E70 1337:886 JLINK_Go() -- CPU_ReadMem(4 bytes @ 0xE0001000) (0001ms, 0385ms total)
T6E70 1337:887 JLINK_IsHalted() -- CPU_ReadMem(2 bytes @ 0x20000000)  returns TRUE (0003ms, 0388ms total)
T6E70 1337:890 JLINK_ReadReg(R15 (PC))  returns 0x20000000 (0000ms, 0385ms total)
T6E70 1337:890 JLINK_ClrBPEx(BPHandle = 0x00000002)  returns 0x00 (0000ms, 0385ms total)
T6E70 1337:890 JLINK_ReadReg(R0)  returns 0x00000001 (0000ms, 0385ms total)
T6E70 1337:890 JLINK_WriteReg(R0, 0x08000000)  returns 0x00 (0000ms, 0385ms total)
T6E70 1337:890 JLINK_WriteReg(R1, 0x00004000)  returns 0x00 (0000ms, 0385ms total)
T6E70 1337:890 JLINK_WriteReg(R2, 0x000000FF)  returns 0x00 (0001ms, 0386ms total)
T6E70 1337:891 JLINK_WriteReg(R3, 0x00000000)  returns 0x00 (0000ms, 0386ms total)
T6E70 1337:891 JLINK_WriteReg(R4, 0x00000000)  returns 0x00 (0000ms, 0386ms total)
T6E70 1337:891 JLINK_WriteReg(R5, 0x00000000)  returns 0x00 (0000ms, 0386ms total)
T6E70 1337:891 JLINK_WriteReg(R6, 0x00000000)  returns 0x00 (0000ms, 0386ms total)
T6E70 1337:891 JLINK_WriteReg(R7, 0x00000000)  returns 0x00 (0000ms, 0386ms total)
T6E70 1337:891 JLINK_WriteReg(R8, 0x00000000)  returns 0x00 (0000ms, 0386ms total)
T6E70 1337:891 JLINK_WriteReg(R9, 0x2000017C)  returns 0x00 (0000ms, 0386ms total)
T6E70 1337:891 JLINK_WriteReg(R10, 0x00000000)  returns 0x00 (0000ms, 0386ms total)
T6E70 1337:891 JLINK_WriteReg(R11, 0x00000000)  returns 0x00 (0000ms, 0386ms total)
T6E70 1337:891 JLINK_WriteReg(R12, 0x00000000)  returns 0x00 (0000ms, 0386ms total)
T6E70 1337:891 JLINK_WriteReg(R13 (SP), 0x20001000)  returns 0x00 (0000ms, 0386ms total)
T6E70 1337:891 JLINK_WriteReg(R14, 0x20000001)  returns 0x00 (0000ms, 0386ms total)
T6E70 1337:891 JLINK_WriteReg(R15 (PC), 0x200000BC)  returns 0x00 (0000ms, 0386ms total)
T6E70 1337:891 JLINK_WriteReg(XPSR, 0x01000000)  returns 0x00 (0000ms, 0386ms total)
T6E70 1337:891 JLINK_WriteReg(MSP, 0x20001000)  returns 0x00 (0000ms, 0386ms total)
T6E70 1337:891 JLINK_WriteReg(PSP, 0x20001000)  returns 0x00 (0000ms, 0386ms total)
T6E70 1337:891 JLINK_WriteReg(CFBP, 0x00000000)  returns 0x00 (0000ms, 0386ms total)
T6E70 1337:891 JLINK_SetBPEx(Addr = 0x20000000, Type = 0xFFFFFFF2)  returns 0x00000003 (0000ms, 0386ms total)
T6E70 1337:891 JLINK_Go() -- CPU_ReadMem(4 bytes @ 0xE0001000) (0001ms, 0387ms total)
T6E70 1337:892 JLINK_IsHalted()  returns FALSE (0000ms, 0387ms total)
T6E70 1338:007 JLINK_IsHalted()  returns FALSE (0000ms, 0387ms total)
T6E70 1338:009 JLINK_IsHalted()  returns FALSE (0000ms, 0387ms total)
T6E70 1338:010 JLINK_IsHalted()  returns FALSE (0000ms, 0387ms total)
T6E70 1338:012 JLINK_IsHalted()  returns FALSE (0000ms, 0387ms total)
T6E70 1338:014 JLINK_IsHalted()  returns FALSE (0000ms, 0387ms total)
T6E70 1338:015 JLINK_IsHalted()  returns FALSE (0000ms, 0387ms total)
T6E70 1338:026 JLINK_IsHalted()  returns FALSE (0000ms, 0387ms total)
T6E70 1338:028 JLINK_IsHalted()  returns FALSE (0000ms, 0387ms total)
T6E70 1338:029 JLINK_IsHalted()  returns FALSE (0000ms, 0387ms total)
T6E70 1338:038 JLINK_IsHalted()  returns FALSE (0000ms, 0387ms total)
T6E70 1338:039 JLINK_IsHalted()  returns FALSE (0000ms, 0387ms total)
T6E70 1338:041 JLINK_IsHalted()  returns FALSE (0000ms, 0387ms total)
T6E70 1338:042 JLINK_IsHalted()  returns FALSE (0000ms, 0387ms total)
T6E70 1338:053 JLINK_IsHalted()  returns FALSE (0000ms, 0387ms total)
T6E70 1338:055 JLINK_IsHalted()  returns FALSE (0000ms, 0387ms total)
T6E70 1338:056 JLINK_IsHalted()  returns FALSE (0000ms, 0387ms total)
T6E70 1338:058 JLINK_IsHalted()  returns FALSE (0000ms, 0387ms total)
T6E70 1338:060 JLINK_IsHalted()  returns FALSE (0000ms, 0387ms total)
T6E70 1338:062 JLINK_IsHalted()  returns FALSE (0000ms, 0387ms total)
T6E70 1338:069 JLINK_IsHalted()  returns FALSE (0000ms, 0387ms total)
T6E70 1338:070 JLINK_IsHalted()  returns FALSE (0000ms, 0387ms total)
T6E70 1338:072 JLINK_IsHalted()  returns FALSE (0000ms, 0387ms total)
T6E70 1338:073 JLINK_IsHalted()  returns FALSE (0000ms, 0387ms total)
T6E70 1338:076 JLINK_IsHalted()  returns FALSE (0000ms, 0387ms total)
T6E70 1338:086 JLINK_IsHalted()  returns FALSE (0000ms, 0387ms total)
T6E70 1338:088 JLINK_IsHalted()  returns FALSE (0000ms, 0387ms total)
T6E70 1338:089 JLINK_IsHalted()  returns FALSE (0000ms, 0387ms total)
T6E70 1338:091 JLINK_IsHalted()  returns FALSE (0000ms, 0387ms total)
T6E70 1338:092 JLINK_IsHalted()  returns FALSE (0001ms, 0388ms total)
T6E70 1338:101 JLINK_IsHalted()  returns FALSE (0000ms, 0387ms total)
T6E70 1338:103 JLINK_IsHalted()  returns FALSE (0000ms, 0387ms total)
T6E70 1338:105 JLINK_IsHalted()  returns FALSE (0000ms, 0387ms total)
T6E70 1338:106 JLINK_IsHalted()  returns FALSE (0000ms, 0387ms total)
T6E70 1338:108 JLINK_IsHalted()  returns FALSE (0000ms, 0387ms total)
T6E70 1338:110 JLINK_IsHalted()  returns FALSE (0000ms, 0387ms total)
T6E70 1338:111 JLINK_IsHalted()  returns FALSE (0000ms, 0387ms total)
T6E70 1338:113 JLINK_IsHalted()  returns FALSE (0000ms, 0387ms total)
T6E70 1338:121 JLINK_IsHalted()  returns FALSE (0001ms, 0388ms total)
T6E70 1338:123 JLINK_IsHalted()  returns FALSE (0000ms, 0387ms total)
T6E70 1338:125 JLINK_IsHalted()  returns FALSE (0000ms, 0387ms total)
T6E70 1338:134 JLINK_IsHalted()  returns FALSE (0000ms, 0387ms total)
T6E70 1338:136 JLINK_IsHalted()  returns FALSE (0000ms, 0387ms total)
T6E70 1338:137 JLINK_IsHalted()  returns FALSE (0001ms, 0388ms total)
T6E70 1338:140 JLINK_IsHalted()  returns FALSE (0000ms, 0387ms total)
T6E70 1338:149 JLINK_IsHalted()  returns FALSE (0000ms, 0387ms total)
T6E70 1338:150 JLINK_IsHalted()  returns FALSE (0000ms, 0387ms total)
T6E70 1338:152 JLINK_IsHalted()  returns FALSE (0000ms, 0387ms total)
T6E70 1338:153 JLINK_IsHalted()  returns FALSE (0000ms, 0387ms total)
T6E70 1338:155 JLINK_IsHalted()  returns FALSE (0000ms, 0387ms total)
T6E70 1338:157 JLINK_IsHalted()  returns FALSE (0000ms, 0387ms total)
T6E70 1338:164 JLINK_IsHalted()  returns FALSE (0000ms, 0387ms total)
T6E70 1338:166 JLINK_IsHalted()  returns FALSE (0000ms, 0387ms total)
T6E70 1338:168 JLINK_IsHalted()  returns FALSE (0000ms, 0387ms total)
T6E70 1338:171 JLINK_IsHalted()  returns FALSE (0000ms, 0387ms total)
T6E70 1338:172 JLINK_IsHalted()  returns FALSE (0000ms, 0387ms total)
T6E70 1338:174 JLINK_IsHalted()  returns FALSE (0000ms, 0387ms total)
T6E70 1338:176 JLINK_IsHalted()  returns FALSE (0000ms, 0387ms total)
T6E70 1338:187 JLINK_IsHalted()  returns FALSE (0000ms, 0387ms total)
T6E70 1338:196 JLINK_IsHalted()  returns FALSE (0000ms, 0387ms total)
T6E70 1338:198 JLINK_IsHalted()  returns FALSE (0000ms, 0387ms total)
T6E70 1338:200 JLINK_IsHalted()  returns FALSE (0000ms, 0387ms total)
T6E70 1338:201 JLINK_IsHalted()  returns FALSE (0001ms, 0388ms total)
T6E70 1338:203 JLINK_IsHalted()  returns FALSE (0001ms, 0388ms total)
T6E70 1338:898 JLINK_IsHalted() -- CPU_ReadMem(2 bytes @ 0x20000000)  returns TRUE (0003ms, 0390ms total)
T6E70 1338:901 JLINK_ReadReg(R15 (PC))  returns 0x20000000 (0000ms, 0387ms total)
T6E70 1338:901 JLINK_ClrBPEx(BPHandle = 0x00000003)  returns 0x00 (0000ms, 0387ms total)
T6E70 1338:901 JLINK_ReadReg(R0)  returns 0x00000000 (0000ms, 0387ms total)
T6E70 1338:902 JLINK_WriteReg(R0, 0x08004000)  returns 0x00 (0000ms, 0387ms total)
T6E70 1338:902 JLINK_WriteReg(R1, 0x00004000)  returns 0x00 (0000ms, 0387ms total)
T6E70 1338:902 JLINK_WriteReg(R2, 0x000000FF)  returns 0x00 (0000ms, 0387ms total)
T6E70 1338:902 JLINK_WriteReg(R3, 0x00000000)  returns 0x00 (0000ms, 0387ms total)
T6E70 1338:902 JLINK_WriteReg(R4, 0x00000000)  returns 0x00 (0000ms, 0387ms total)
T6E70 1338:902 JLINK_WriteReg(R5, 0x00000000)  returns 0x00 (0000ms, 0387ms total)
T6E70 1338:902 JLINK_WriteReg(R6, 0x00000000)  returns 0x00 (0000ms, 0387ms total)
T6E70 1338:902 JLINK_WriteReg(R7, 0x00000000)  returns 0x00 (0000ms, 0387ms total)
T6E70 1338:902 JLINK_WriteReg(R8, 0x00000000)  returns 0x00 (0000ms, 0387ms total)
T6E70 1338:902 JLINK_WriteReg(R9, 0x2000017C)  returns 0x00 (0000ms, 0387ms total)
T6E70 1338:902 JLINK_WriteReg(R10, 0x00000000)  returns 0x00 (0000ms, 0387ms total)
T6E70 1338:902 JLINK_WriteReg(R11, 0x00000000)  returns 0x00 (0000ms, 0387ms total)
T6E70 1338:902 JLINK_WriteReg(R12, 0x00000000)  returns 0x00 (0000ms, 0387ms total)
T6E70 1338:902 JLINK_WriteReg(R13 (SP), 0x20001000)  returns 0x00 (0000ms, 0387ms total)
T6E70 1338:902 JLINK_WriteReg(R14, 0x20000001)  returns 0x00 (0000ms, 0387ms total)
T6E70 1338:902 JLINK_WriteReg(R15 (PC), 0x20000020)  returns 0x00 (0000ms, 0387ms total)
T6E70 1338:902 JLINK_WriteReg(XPSR, 0x01000000)  returns 0x00 (0000ms, 0387ms total)
T6E70 1338:902 JLINK_WriteReg(MSP, 0x20001000)  returns 0x00 (0000ms, 0387ms total)
T6E70 1338:902 JLINK_WriteReg(PSP, 0x20001000)  returns 0x00 (0000ms, 0387ms total)
T6E70 1338:902 JLINK_WriteReg(CFBP, 0x00000000)  returns 0x00 (0000ms, 0387ms total)
T6E70 1338:902 JLINK_SetBPEx(Addr = 0x20000000, Type = 0xFFFFFFF2)  returns 0x00000004 (0000ms, 0387ms total)
T6E70 1338:902 JLINK_Go() -- CPU_ReadMem(4 bytes @ 0xE0001000) (0002ms, 0389ms total)
T6E70 1338:904 JLINK_IsHalted() -- CPU_ReadMem(2 bytes @ 0x20000000)  returns TRUE (0004ms, 0393ms total)
T6E70 1338:908 JLINK_ReadReg(R15 (PC))  returns 0x20000000 (0000ms, 0389ms total)
T6E70 1338:908 JLINK_ClrBPEx(BPHandle = 0x00000004)  returns 0x00 (0000ms, 0389ms total)
T6E70 1338:908 JLINK_ReadReg(R0)  returns 0x00000001 (0000ms, 0389ms total)
T6E70 1338:908 JLINK_WriteReg(R0, 0x08004000)  returns 0x00 (0000ms, 0389ms total)
T6E70 1338:908 JLINK_WriteReg(R1, 0x00004000)  returns 0x00 (0000ms, 0389ms total)
T6E70 1338:908 JLINK_WriteReg(R2, 0x000000FF)  returns 0x00 (0000ms, 0389ms total)
T6E70 1338:908 JLINK_WriteReg(R3, 0x00000000)  returns 0x00 (0000ms, 0389ms total)
T6E70 1338:908 JLINK_WriteReg(R4, 0x00000000)  returns 0x00 (0000ms, 0389ms total)
T6E70 1338:908 JLINK_WriteReg(R5, 0x00000000)  returns 0x00 (0000ms, 0389ms total)
T6E70 1338:908 JLINK_WriteReg(R6, 0x00000000)  returns 0x00 (0000ms, 0389ms total)
T6E70 1338:908 JLINK_WriteReg(R7, 0x00000000)  returns 0x00 (0000ms, 0389ms total)
T6E70 1338:908 JLINK_WriteReg(R8, 0x00000000)  returns 0x00 (0000ms, 0389ms total)
T6E70 1338:908 JLINK_WriteReg(R9, 0x2000017C)  returns 0x00 (0000ms, 0389ms total)
T6E70 1338:908 JLINK_WriteReg(R10, 0x00000000)  returns 0x00 (0000ms, 0389ms total)
T6E70 1338:908 JLINK_WriteReg(R11, 0x00000000)  returns 0x00 (0000ms, 0389ms total)
T6E70 1338:908 JLINK_WriteReg(R12, 0x00000000)  returns 0x00 (0000ms, 0389ms total)
T6E70 1338:908 JLINK_WriteReg(R13 (SP), 0x20001000)  returns 0x00 (0000ms, 0389ms total)
T6E70 1338:908 JLINK_WriteReg(R14, 0x20000001)  returns 0x00 (0000ms, 0389ms total)
T6E70 1338:908 JLINK_WriteReg(R15 (PC), 0x200000BC)  returns 0x00 (0000ms, 0389ms total)
T6E70 1338:908 JLINK_WriteReg(XPSR, 0x01000000)  returns 0x00 (0000ms, 0389ms total)
T6E70 1338:908 JLINK_WriteReg(MSP, 0x20001000)  returns 0x00 (0000ms, 0389ms total)
T6E70 1338:908 JLINK_WriteReg(PSP, 0x20001000)  returns 0x00 (0000ms, 0389ms total)
T6E70 1338:908 JLINK_WriteReg(CFBP, 0x00000000)  returns 0x00 (0000ms, 0389ms total)
T6E70 1338:908 JLINK_SetBPEx(Addr = 0x20000000, Type = 0xFFFFFFF2)  returns 0x00000005 (0000ms, 0389ms total)
T6E70 1338:908 JLINK_Go() -- CPU_ReadMem(4 bytes @ 0xE0001000) (0001ms, 0390ms total)
T6E70 1338:909 JLINK_IsHalted()  returns FALSE (0001ms, 0391ms total)
T6E70 1338:917 JLINK_IsHalted()  returns FALSE (0000ms, 0390ms total)
T6E70 1338:918 JLINK_IsHalted()  returns FALSE (0001ms, 0391ms total)
T6E70 1338:920 JLINK_IsHalted()  returns FALSE (0000ms, 0390ms total)
T6E70 1338:921 JLINK_IsHalted()  returns FALSE (0000ms, 0390ms total)
T6E70 1338:923 JLINK_IsHalted()  returns FALSE (0001ms, 0391ms total)
T6E70 1338:925 JLINK_IsHalted()  returns FALSE (0000ms, 0390ms total)
T6E70 1338:927 JLINK_IsHalted()  returns FALSE (0000ms, 0390ms total)
T6E70 1338:934 JLINK_IsHalted()  returns FALSE (0000ms, 0390ms total)
T6E70 1338:936 JLINK_IsHalted()  returns FALSE (0000ms, 0390ms total)
T6E70 1338:944 JLINK_IsHalted()  returns FALSE (0000ms, 0390ms total)
T6E70 1338:946 JLINK_IsHalted()  returns FALSE (0000ms, 0390ms total)
T6E70 1338:947 JLINK_IsHalted()  returns FALSE (0000ms, 0390ms total)
T6E70 1338:949 JLINK_IsHalted()  returns FALSE (0000ms, 0390ms total)
T6E70 1338:951 JLINK_IsHalted()  returns FALSE (0000ms, 0390ms total)
T6E70 1338:952 JLINK_IsHalted()  returns FALSE (0000ms, 0390ms total)
T6E70 1338:954 JLINK_IsHalted()  returns FALSE (0000ms, 0390ms total)
T6E70 1338:963 JLINK_IsHalted()  returns FALSE (0000ms, 0390ms total)
T6E70 1338:965 JLINK_IsHalted()  returns FALSE (0000ms, 0390ms total)
T6E70 1338:966 JLINK_IsHalted()  returns FALSE (0000ms, 0390ms total)
T6E70 1338:968 JLINK_IsHalted()  returns FALSE (0000ms, 0390ms total)
T6E70 1338:977 JLINK_IsHalted()  returns FALSE (0000ms, 0390ms total)
T6E70 1338:979 JLINK_IsHalted()  returns FALSE (0000ms, 0390ms total)
T6E70 1338:980 JLINK_IsHalted()  returns FALSE (0000ms, 0390ms total)
T6E70 1338:982 JLINK_IsHalted()  returns FALSE (0000ms, 0390ms total)
T6E70 1338:983 JLINK_IsHalted()  returns FALSE (0000ms, 0390ms total)
T6E70 1338:993 JLINK_IsHalted()  returns FALSE (0000ms, 0390ms total)
T6E70 1338:994 JLINK_IsHalted()  returns FALSE (0000ms, 0390ms total)
T6E70 1338:996 JLINK_IsHalted()  returns FALSE (0000ms, 0390ms total)
T6E70 1338:998 JLINK_IsHalted()  returns FALSE (0000ms, 0390ms total)
T6E70 1338:999 JLINK_IsHalted()  returns FALSE (0000ms, 0390ms total)
T6E70 1339:013 JLINK_IsHalted()  returns FALSE (0000ms, 0390ms total)
T6E70 1339:026 JLINK_IsHalted()  returns FALSE (0000ms, 0390ms total)
T6E70 1339:027 JLINK_IsHalted()  returns FALSE (0000ms, 0390ms total)
T6E70 1339:029 JLINK_IsHalted()  returns FALSE (0000ms, 0390ms total)
T6E70 1339:042 JLINK_IsHalted()  returns FALSE (0000ms, 0390ms total)
T6E70 1339:044 JLINK_IsHalted()  returns FALSE (0000ms, 0390ms total)
T6E70 1339:045 JLINK_IsHalted()  returns FALSE (0000ms, 0390ms total)
T6E70 1339:055 JLINK_IsHalted()  returns FALSE (0000ms, 0390ms total)
T6E70 1339:057 JLINK_IsHalted()  returns FALSE (0000ms, 0390ms total)
T6E70 1339:059 JLINK_IsHalted()  returns FALSE (0000ms, 0390ms total)
T6E70 1339:061 JLINK_IsHalted()  returns FALSE (0000ms, 0390ms total)
T6E70 1339:077 JLINK_IsHalted()  returns FALSE (0000ms, 0390ms total)
T6E70 1339:091 JLINK_IsHalted()  returns FALSE (0000ms, 0390ms total)
T6E70 1339:093 JLINK_IsHalted()  returns FALSE (0000ms, 0390ms total)
T6E70 1339:095 JLINK_IsHalted()  returns FALSE (0000ms, 0390ms total)
T6E70 1339:106 JLINK_IsHalted()  returns FALSE (0000ms, 0390ms total)
T6E70 1339:108 JLINK_IsHalted()  returns FALSE (0000ms, 0390ms total)
T6E70 1339:118 JLINK_IsHalted()  returns FALSE (0000ms, 0390ms total)
T6E70 1339:120 JLINK_IsHalted()  returns FALSE (0000ms, 0390ms total)
T6E70 1339:121 JLINK_IsHalted()  returns FALSE (0000ms, 0390ms total)
T6E70 1339:123 JLINK_IsHalted()  returns FALSE (0000ms, 0390ms total)
T6E70 1339:136 JLINK_IsHalted()  returns FALSE (0000ms, 0390ms total)
T6E70 1339:138 JLINK_IsHalted()  returns FALSE (0000ms, 0390ms total)
T6E70 1339:154 JLINK_IsHalted()  returns FALSE (0000ms, 0390ms total)
T6E70 1339:164 JLINK_IsHalted()  returns FALSE (0000ms, 0390ms total)
T6E70 1339:167 JLINK_IsHalted()  returns FALSE (0000ms, 0390ms total)
T6E70 1339:168 JLINK_IsHalted()  returns FALSE (0000ms, 0390ms total)
T6E70 1339:170 JLINK_IsHalted()  returns FALSE (0000ms, 0390ms total)
T6E70 1339:184 JLINK_IsHalted()  returns FALSE (0000ms, 0390ms total)
T6E70 1339:186 JLINK_IsHalted()  returns FALSE (0000ms, 0390ms total)
T6E70 1339:197 JLINK_IsHalted()  returns FALSE (0000ms, 0390ms total)
T6E70 1339:199 JLINK_IsHalted()  returns FALSE (0000ms, 0390ms total)
T6E70 1339:201 JLINK_IsHalted()  returns FALSE (0000ms, 0390ms total)
T6E70 1339:214 JLINK_IsHalted()  returns FALSE (0000ms, 0390ms total)
T6E70 1339:215 JLINK_IsHalted()  returns FALSE (0000ms, 0390ms total)
T6E70 1339:217 JLINK_IsHalted()  returns FALSE (0000ms, 0390ms total)
T6E70 1339:227 JLINK_IsHalted()  returns FALSE (0000ms, 0390ms total)
T6E70 1339:229 JLINK_IsHalted()  returns FALSE (0000ms, 0390ms total)
T6E70 1339:230 JLINK_IsHalted()  returns FALSE (0000ms, 0390ms total)
T6E70 1339:232 JLINK_IsHalted()  returns FALSE (0000ms, 0390ms total)
T6E70 1339:234 JLINK_IsHalted()  returns FALSE (0000ms, 0390ms total)
T6E70 1339:245 JLINK_IsHalted()  returns FALSE (0000ms, 0390ms total)
T6E70 1339:246 JLINK_IsHalted()  returns FALSE (0000ms, 0390ms total)
T6E70 1339:248 JLINK_IsHalted()  returns FALSE (0000ms, 0390ms total)
T6E70 1339:260 JLINK_IsHalted()  returns FALSE (0000ms, 0390ms total)
T6E70 1339:262 JLINK_IsHalted()  returns FALSE (0000ms, 0390ms total)
T6E70 1339:264 JLINK_IsHalted()  returns FALSE (0000ms, 0390ms total)
T6E70 1339:274 JLINK_IsHalted()  returns FALSE (0000ms, 0390ms total)
T6E70 1339:277 JLINK_IsHalted() -- CPU_ReadMem(2 bytes @ 0x20000000)  returns TRUE (0003ms, 0393ms total)
T6E70 1339:280 JLINK_ReadReg(R15 (PC))  returns 0x20000000 (0000ms, 0390ms total)
T6E70 1339:280 JLINK_ClrBPEx(BPHandle = 0x00000005)  returns 0x00 (0000ms, 0390ms total)
T6E70 1339:280 JLINK_ReadReg(R0)  returns 0x00000000 (0000ms, 0390ms total)
T6E70 1339:283 JLINK_WriteReg(R0, 0x00000001)  returns 0x00 (0000ms, 0390ms total)
T6E70 1339:283 JLINK_WriteReg(R1, 0x00004000)  returns 0x00 (0000ms, 0390ms total)
T6E70 1339:283 JLINK_WriteReg(R2, 0x000000FF)  returns 0x00 (0000ms, 0390ms total)
T6E70 1339:283 JLINK_WriteReg(R3, 0x00000000)  returns 0x00 (0000ms, 0390ms total)
T6E70 1339:283 JLINK_WriteReg(R4, 0x00000000)  returns 0x00 (0000ms, 0390ms total)
T6E70 1339:283 JLINK_WriteReg(R5, 0x00000000)  returns 0x00 (0000ms, 0390ms total)
T6E70 1339:283 JLINK_WriteReg(R6, 0x00000000)  returns 0x00 (0000ms, 0390ms total)
T6E70 1339:283 JLINK_WriteReg(R7, 0x00000000)  returns 0x00 (0000ms, 0390ms total)
T6E70 1339:283 JLINK_WriteReg(R8, 0x00000000)  returns 0x00 (0000ms, 0390ms total)
T6E70 1339:283 JLINK_WriteReg(R9, 0x2000017C)  returns 0x00 (0000ms, 0390ms total)
T6E70 1339:283 JLINK_WriteReg(R10, 0x00000000)  returns 0x00 (0000ms, 0390ms total)
T6E70 1339:283 JLINK_WriteReg(R11, 0x00000000)  returns 0x00 (0000ms, 0390ms total)
T6E70 1339:283 JLINK_WriteReg(R12, 0x00000000)  returns 0x00 (0000ms, 0390ms total)
T6E70 1339:283 JLINK_WriteReg(R13 (SP), 0x20001000)  returns 0x00 (0000ms, 0390ms total)
T6E70 1339:283 JLINK_WriteReg(R14, 0x20000001)  returns 0x00 (0000ms, 0390ms total)
T6E70 1339:283 JLINK_WriteReg(R15 (PC), 0x20000082)  returns 0x00 (0000ms, 0390ms total)
T6E70 1339:283 JLINK_WriteReg(XPSR, 0x01000000)  returns 0x00 (0000ms, 0390ms total)
T6E70 1339:283 JLINK_WriteReg(MSP, 0x20001000)  returns 0x00 (0000ms, 0390ms total)
T6E70 1339:283 JLINK_WriteReg(PSP, 0x20001000)  returns 0x00 (0000ms, 0390ms total)
T6E70 1339:283 JLINK_WriteReg(CFBP, 0x00000000)  returns 0x00 (0000ms, 0390ms total)
T6E70 1339:283 JLINK_SetBPEx(Addr = 0x20000000, Type = 0xFFFFFFF2)  returns 0x00000006 (0000ms, 0390ms total)
T6E70 1339:283 JLINK_Go() -- CPU_ReadMem(4 bytes @ 0xE0001000) (0002ms, 0392ms total)
T6E70 1339:285 JLINK_IsHalted() -- CPU_ReadMem(2 bytes @ 0x20000000)  returns TRUE (0003ms, 0395ms total)
T6E70 1339:288 JLINK_ReadReg(R15 (PC))  returns 0x20000000 (0000ms, 0392ms total)
T6E70 1339:288 JLINK_ClrBPEx(BPHandle = 0x00000006)  returns 0x00 (0000ms, 0392ms total)
T6E70 1339:288 JLINK_ReadReg(R0)  returns 0x00000000 (0000ms, 0392ms total)
T6E70 1339:347 JLINK_WriteMem(0x20000000, 0x0180 Bytes, ...) - Data: 00 BE 0A E0 0D 78 2D 06 68 40 08 24 40 00 00 D3 ... -- CPU_WriteMem(384 bytes @ 0x20000000)  returns 0x180 (0004ms, 0396ms total)
T6E70 1339:351 JLINK_WriteReg(R0, 0x08000000)  returns 0x00 (0000ms, 0396ms total)
T6E70 1339:351 JLINK_WriteReg(R1, 0x0A037A00)  returns 0x00 (0000ms, 0396ms total)
T6E70 1339:351 JLINK_WriteReg(R2, 0x00000002)  returns 0x00 (0000ms, 0396ms total)
T6E70 1339:351 JLINK_WriteReg(R3, 0x00000000)  returns 0x00 (0000ms, 0396ms total)
T6E70 1339:351 JLINK_WriteReg(R4, 0x00000000)  returns 0x00 (0000ms, 0396ms total)
T6E70 1339:351 JLINK_WriteReg(R5, 0x00000000)  returns 0x00 (0000ms, 0396ms total)
T6E70 1339:351 JLINK_WriteReg(R6, 0x00000000)  returns 0x00 (0000ms, 0396ms total)
T6E70 1339:351 JLINK_WriteReg(R7, 0x00000000)  returns 0x00 (0000ms, 0396ms total)
T6E70 1339:351 JLINK_WriteReg(R8, 0x00000000)  returns 0x00 (0000ms, 0396ms total)
T6E70 1339:351 JLINK_WriteReg(R9, 0x2000017C)  returns 0x00 (0000ms, 0396ms total)
T6E70 1339:351 JLINK_WriteReg(R10, 0x00000000)  returns 0x00 (0000ms, 0396ms total)
T6E70 1339:351 JLINK_WriteReg(R11, 0x00000000)  returns 0x00 (0000ms, 0396ms total)
T6E70 1339:351 JLINK_WriteReg(R12, 0x00000000)  returns 0x00 (0000ms, 0396ms total)
T6E70 1339:351 JLINK_WriteReg(R13 (SP), 0x20001000)  returns 0x00 (0000ms, 0396ms total)
T6E70 1339:351 JLINK_WriteReg(R14, 0x20000001)  returns 0x00 (0000ms, 0396ms total)
T6E70 1339:351 JLINK_WriteReg(R15 (PC), 0x20000054)  returns 0x00 (0000ms, 0396ms total)
T6E70 1339:351 JLINK_WriteReg(XPSR, 0x01000000)  returns 0x00 (0000ms, 0396ms total)
T6E70 1339:351 JLINK_WriteReg(MSP, 0x20001000)  returns 0x00 (0000ms, 0396ms total)
T6E70 1339:351 JLINK_WriteReg(PSP, 0x20001000)  returns 0x00 (0000ms, 0396ms total)
T6E70 1339:351 JLINK_WriteReg(CFBP, 0x00000000)  returns 0x00 (0000ms, 0396ms total)
T6E70 1339:351 JLINK_SetBPEx(Addr = 0x20000000, Type = 0xFFFFFFF2) -- CPU_ReadMem(2 bytes @ 0x20000000)  returns 0x00000007 (0001ms, 0397ms total)
T6E70 1339:352 JLINK_Go() -- CPU_WriteMem(2 bytes @ 0x20000000) -- CPU_ReadMem(4 bytes @ 0xE0001000) (0001ms, 0398ms total)
T6E70 1339:353 JLINK_IsHalted() -- CPU_ReadMem(2 bytes @ 0x20000000)  returns TRUE (0004ms, 0402ms total)
T6E70 1339:357 JLINK_ReadReg(R15 (PC))  returns 0x20000000 (0000ms, 0398ms total)
T6E70 1339:357 JLINK_ClrBPEx(BPHandle = 0x00000007)  returns 0x00 (0000ms, 0398ms total)
T6E70 1339:357 JLINK_ReadReg(R0)  returns 0x00000000 (0000ms, 0398ms total)
T6E70 1339:358 JLINK_WriteMem(0x20000180, 0x0280 Bytes, ...) - Data: 70 07 00 20 E1 1E 00 08 71 03 00 08 73 03 00 08 ... -- CPU_WriteMem(640 bytes @ 0x20000180)  returns 0x280 (0005ms, 0403ms total)
T6E70 1339:363 JLINK_WriteMem(0x20000400, 0x0180 Bytes, ...) - Data: 4F F4 78 43 CD E9 00 21 02 90 2E A2 50 21 20 20 ... -- CPU_WriteMem(384 bytes @ 0x20000400)  returns 0x180 (0004ms, 0407ms total)
T6E70 1339:367 JLINK_WriteReg(R0, 0x08000000)  returns 0x00 (0000ms, 0407ms total)
T6E70 1339:367 JLINK_WriteReg(R1, 0x00000400)  returns 0x00 (0000ms, 0407ms total)
T6E70 1339:367 JLINK_WriteReg(R2, 0x20000180)  returns 0x00 (0000ms, 0407ms total)
T6E70 1339:367 JLINK_WriteReg(R3, 0x00000000)  returns 0x00 (0000ms, 0407ms total)
T6E70 1339:367 JLINK_WriteReg(R4, 0x00000000)  returns 0x00 (0000ms, 0407ms total)
T6E70 1339:367 JLINK_WriteReg(R5, 0x00000000)  returns 0x00 (0000ms, 0407ms total)
T6E70 1339:367 JLINK_WriteReg(R6, 0x00000000)  returns 0x00 (0000ms, 0407ms total)
T6E70 1339:367 JLINK_WriteReg(R7, 0x00000000)  returns 0x00 (0000ms, 0407ms total)
T6E70 1339:367 JLINK_WriteReg(R8, 0x00000000)  returns 0x00 (0000ms, 0407ms total)
T6E70 1339:367 JLINK_WriteReg(R9, 0x2000017C)  returns 0x00 (0000ms, 0407ms total)
T6E70 1339:367 JLINK_WriteReg(R10, 0x00000000)  returns 0x00 (0001ms, 0408ms total)
T6E70 1339:368 JLINK_WriteReg(R11, 0x00000000)  returns 0x00 (0000ms, 0408ms total)
T6E70 1339:368 JLINK_WriteReg(R12, 0x00000000)  returns 0x00 (0000ms, 0408ms total)
T6E70 1339:368 JLINK_WriteReg(R13 (SP), 0x20001000)  returns 0x00 (0000ms, 0408ms total)
T6E70 1339:368 JLINK_WriteReg(R14, 0x20000001)  returns 0x00 (0000ms, 0408ms total)
T6E70 1339:368 JLINK_WriteReg(R15 (PC), 0x20000108)  returns 0x00 (0000ms, 0408ms total)
T6E70 1339:368 JLINK_WriteReg(XPSR, 0x01000000)  returns 0x00 (0000ms, 0408ms total)
T6E70 1339:368 JLINK_WriteReg(MSP, 0x20001000)  returns 0x00 (0000ms, 0408ms total)
T6E70 1339:368 JLINK_WriteReg(PSP, 0x20001000)  returns 0x00 (0000ms, 0408ms total)
T6E70 1339:368 JLINK_WriteReg(CFBP, 0x00000000)  returns 0x00 (0000ms, 0408ms total)
T6E70 1339:368 JLINK_SetBPEx(Addr = 0x20000000, Type = 0xFFFFFFF2)  returns 0x00000008 (0000ms, 0408ms total)
T6E70 1339:368 JLINK_Go() -- CPU_ReadMem(4 bytes @ 0xE0001000) (0002ms, 0410ms total)
T6E70 1339:370 JLINK_IsHalted()  returns FALSE (0000ms, 0410ms total)
T6E70 1339:387 JLINK_IsHalted() -- CPU_ReadMem(2 bytes @ 0x20000000)  returns TRUE (0003ms, 0413ms total)
T6E70 1339:390 JLINK_ReadReg(R15 (PC))  returns 0x20000000 (0000ms, 0410ms total)
T6E70 1339:390 JLINK_ClrBPEx(BPHandle = 0x00000008)  returns 0x00 (0000ms, 0410ms total)
T6E70 1339:390 JLINK_ReadReg(R0)  returns 0x00000000 (0000ms, 0410ms total)
T6E70 1339:394 JLINK_WriteMem(0x20000180, 0x0280 Bytes, ...) - Data: 08 46 00 68 40 F4 00 40 08 60 08 46 00 68 40 F4 ... -- CPU_WriteMem(640 bytes @ 0x20000180)  returns 0x280 (0005ms, 0415ms total)
T6E70 1339:399 JLINK_WriteMem(0x20000400, 0x0180 Bytes, ...) - Data: 20 20 E0 49 1A 31 08 80 18 46 FF F7 DB FF 20 20 ... -- CPU_WriteMem(384 bytes @ 0x20000400)  returns 0x180 (0004ms, 0419ms total)
T6E70 1339:403 JLINK_WriteReg(R0, 0x08000400)  returns 0x00 (0000ms, 0419ms total)
T6E70 1339:403 JLINK_WriteReg(R1, 0x00000400)  returns 0x00 (0000ms, 0419ms total)
T6E70 1339:403 JLINK_WriteReg(R2, 0x20000180)  returns 0x00 (0000ms, 0419ms total)
T6E70 1339:403 JLINK_WriteReg(R3, 0x00000000)  returns 0x00 (0000ms, 0419ms total)
T6E70 1339:403 JLINK_WriteReg(R4, 0x00000000)  returns 0x00 (0000ms, 0419ms total)
T6E70 1339:403 JLINK_WriteReg(R5, 0x00000000)  returns 0x00 (0000ms, 0419ms total)
T6E70 1339:403 JLINK_WriteReg(R6, 0x00000000)  returns 0x00 (0000ms, 0419ms total)
T6E70 1339:403 JLINK_WriteReg(R7, 0x00000000)  returns 0x00 (0000ms, 0419ms total)
T6E70 1339:403 JLINK_WriteReg(R8, 0x00000000)  returns 0x00 (0000ms, 0419ms total)
T6E70 1339:403 JLINK_WriteReg(R9, 0x2000017C)  returns 0x00 (0000ms, 0419ms total)
T6E70 1339:403 JLINK_WriteReg(R10, 0x00000000)  returns 0x00 (0000ms, 0419ms total)
T6E70 1339:403 JLINK_WriteReg(R11, 0x00000000)  returns 0x00 (0000ms, 0419ms total)
T6E70 1339:403 JLINK_WriteReg(R12, 0x00000000)  returns 0x00 (0000ms, 0419ms total)
T6E70 1339:403 JLINK_WriteReg(R13 (SP), 0x20001000)  returns 0x00 (0000ms, 0419ms total)
T6E70 1339:403 JLINK_WriteReg(R14, 0x20000001)  returns 0x00 (0000ms, 0419ms total)
T6E70 1339:403 JLINK_WriteReg(R15 (PC), 0x20000108)  returns 0x00 (0000ms, 0419ms total)
T6E70 1339:403 JLINK_WriteReg(XPSR, 0x01000000)  returns 0x00 (0000ms, 0419ms total)
T6E70 1339:403 JLINK_WriteReg(MSP, 0x20001000)  returns 0x00 (0000ms, 0419ms total)
T6E70 1339:403 JLINK_WriteReg(PSP, 0x20001000)  returns 0x00 (0000ms, 0419ms total)
T6E70 1339:403 JLINK_WriteReg(CFBP, 0x00000000)  returns 0x00 (0000ms, 0419ms total)
T6E70 1339:403 JLINK_SetBPEx(Addr = 0x20000000, Type = 0xFFFFFFF2)  returns 0x00000009 (0000ms, 0419ms total)
T6E70 1339:403 JLINK_Go() -- CPU_ReadMem(4 bytes @ 0xE0001000) (0002ms, 0421ms total)
T6E70 1339:405 JLINK_IsHalted()  returns FALSE (0000ms, 0421ms total)
T6E70 1339:415 JLINK_IsHalted() -- CPU_ReadMem(2 bytes @ 0x20000000)  returns TRUE (0003ms, 0424ms total)
T6E70 1339:418 JLINK_ReadReg(R15 (PC))  returns 0x20000000 (0000ms, 0421ms total)
T6E70 1339:418 JLINK_ClrBPEx(BPHandle = 0x00000009)  returns 0x00 (0000ms, 0421ms total)
T6E70 1339:418 JLINK_ReadReg(R0)  returns 0x00000000 (0000ms, 0421ms total)
T6E70 1339:418 JLINK_WriteMem(0x20000180, 0x0280 Bytes, ...) - Data: 2E FF BD 20 FF F7 3A FF 06 20 FF F7 28 FF BC 20 ... -- CPU_WriteMem(640 bytes @ 0x20000180)  returns 0x280 (0005ms, 0426ms total)
T6E70 1339:423 JLINK_WriteMem(0x20000400, 0x0180 Bytes, ...) - Data: FF F7 FC FD 3C 20 FF F7 EA FD 00 20 FF F7 E7 FD ... -- CPU_WriteMem(384 bytes @ 0x20000400)  returns 0x180 (0004ms, 0430ms total)
T6E70 1339:427 JLINK_WriteReg(R0, 0x08000800)  returns 0x00 (0000ms, 0430ms total)
T6E70 1339:427 JLINK_WriteReg(R1, 0x00000400)  returns 0x00 (0000ms, 0430ms total)
T6E70 1339:427 JLINK_WriteReg(R2, 0x20000180)  returns 0x00 (0000ms, 0430ms total)
T6E70 1339:427 JLINK_WriteReg(R3, 0x00000000)  returns 0x00 (0000ms, 0430ms total)
T6E70 1339:427 JLINK_WriteReg(R4, 0x00000000)  returns 0x00 (0000ms, 0430ms total)
T6E70 1339:427 JLINK_WriteReg(R5, 0x00000000)  returns 0x00 (0000ms, 0430ms total)
T6E70 1339:427 JLINK_WriteReg(R6, 0x00000000)  returns 0x00 (0000ms, 0430ms total)
T6E70 1339:427 JLINK_WriteReg(R7, 0x00000000)  returns 0x00 (0000ms, 0430ms total)
T6E70 1339:427 JLINK_WriteReg(R8, 0x00000000)  returns 0x00 (0000ms, 0430ms total)
T6E70 1339:427 JLINK_WriteReg(R9, 0x2000017C)  returns 0x00 (0000ms, 0430ms total)
T6E70 1339:427 JLINK_WriteReg(R10, 0x00000000)  returns 0x00 (0000ms, 0430ms total)
T6E70 1339:427 JLINK_WriteReg(R11, 0x00000000)  returns 0x00 (0000ms, 0430ms total)
T6E70 1339:427 JLINK_WriteReg(R12, 0x00000000)  returns 0x00 (0000ms, 0430ms total)
T6E70 1339:427 JLINK_WriteReg(R13 (SP), 0x20001000)  returns 0x00 (0000ms, 0430ms total)
T6E70 1339:427 JLINK_WriteReg(R14, 0x20000001)  returns 0x00 (0000ms, 0430ms total)
T6E70 1339:427 JLINK_WriteReg(R15 (PC), 0x20000108)  returns 0x00 (0000ms, 0430ms total)
T6E70 1339:427 JLINK_WriteReg(XPSR, 0x01000000)  returns 0x00 (0000ms, 0430ms total)
T6E70 1339:427 JLINK_WriteReg(MSP, 0x20001000)  returns 0x00 (0000ms, 0430ms total)
T6E70 1339:427 JLINK_WriteReg(PSP, 0x20001000)  returns 0x00 (0000ms, 0430ms total)
T6E70 1339:427 JLINK_WriteReg(CFBP, 0x00000000)  returns 0x00 (0000ms, 0430ms total)
T6E70 1339:427 JLINK_SetBPEx(Addr = 0x20000000, Type = 0xFFFFFFF2)  returns 0x0000000A (0000ms, 0430ms total)
T6E70 1339:427 JLINK_Go() -- CPU_ReadMem(4 bytes @ 0xE0001000) (0002ms, 0432ms total)
T6E70 1339:429 JLINK_IsHalted()  returns FALSE (0000ms, 0432ms total)
T6E70 1339:435 JLINK_IsHalted() -- CPU_ReadMem(2 bytes @ 0x20000000)  returns TRUE (0003ms, 0435ms total)
T6E70 1339:438 JLINK_ReadReg(R15 (PC))  returns 0x20000000 (0000ms, 0432ms total)
T6E70 1339:438 JLINK_ClrBPEx(BPHandle = 0x0000000A)  returns 0x00 (0000ms, 0432ms total)
T6E70 1339:438 JLINK_ReadReg(R0)  returns 0x00000000 (0000ms, 0432ms total)
T6E70 1339:442 JLINK_WriteMem(0x20000180, 0x0280 Bytes, ...) - Data: 00 27 02 E0 4F F0 FF 37 6D 42 00 2E 02 DD 4F F0 ... -- CPU_WriteMem(640 bytes @ 0x20000180)  returns 0x280 (0005ms, 0437ms total)
T6E70 1339:447 JLINK_WriteMem(0x20000400, 0x0180 Bytes, ...) - Data: C7 B2 01 98 87 42 B0 DB 00 BF 68 1C 85 B2 02 98 ... -- CPU_WriteMem(384 bytes @ 0x20000400)  returns 0x180 (0003ms, 0440ms total)
T6E70 1339:450 JLINK_WriteReg(R0, 0x08000C00)  returns 0x00 (0000ms, 0440ms total)
T6E70 1339:450 JLINK_WriteReg(R1, 0x00000400)  returns 0x00 (0000ms, 0440ms total)
T6E70 1339:450 JLINK_WriteReg(R2, 0x20000180)  returns 0x00 (0000ms, 0440ms total)
T6E70 1339:450 JLINK_WriteReg(R3, 0x00000000)  returns 0x00 (0000ms, 0440ms total)
T6E70 1339:450 JLINK_WriteReg(R4, 0x00000000)  returns 0x00 (0000ms, 0440ms total)
T6E70 1339:450 JLINK_WriteReg(R5, 0x00000000)  returns 0x00 (0000ms, 0440ms total)
T6E70 1339:450 JLINK_WriteReg(R6, 0x00000000)  returns 0x00 (0000ms, 0440ms total)
T6E70 1339:450 JLINK_WriteReg(R7, 0x00000000)  returns 0x00 (0000ms, 0440ms total)
T6E70 1339:450 JLINK_WriteReg(R8, 0x00000000)  returns 0x00 (0000ms, 0440ms total)
T6E70 1339:450 JLINK_WriteReg(R9, 0x2000017C)  returns 0x00 (0000ms, 0440ms total)
T6E70 1339:450 JLINK_WriteReg(R10, 0x00000000)  returns 0x00 (0000ms, 0440ms total)
T6E70 1339:450 JLINK_WriteReg(R11, 0x00000000)  returns 0x00 (0000ms, 0440ms total)
T6E70 1339:450 JLINK_WriteReg(R12, 0x00000000)  returns 0x00 (0000ms, 0440ms total)
T6E70 1339:450 JLINK_WriteReg(R13 (SP), 0x20001000)  returns 0x00 (0000ms, 0440ms total)
T6E70 1339:450 JLINK_WriteReg(R14, 0x20000001)  returns 0x00 (0000ms, 0440ms total)
T6E70 1339:450 JLINK_WriteReg(R15 (PC), 0x20000108)  returns 0x00 (0000ms, 0440ms total)
T6E70 1339:451 JLINK_WriteReg(XPSR, 0x01000000)  returns 0x00 (0000ms, 0440ms total)
T6E70 1339:451 JLINK_WriteReg(MSP, 0x20001000)  returns 0x00 (0000ms, 0440ms total)
T6E70 1339:451 JLINK_WriteReg(PSP, 0x20001000)  returns 0x00 (0000ms, 0440ms total)
T6E70 1339:451 JLINK_WriteReg(CFBP, 0x00000000)  returns 0x00 (0000ms, 0440ms total)
T6E70 1339:451 JLINK_SetBPEx(Addr = 0x20000000, Type = 0xFFFFFFF2)  returns 0x0000000B (0000ms, 0440ms total)
T6E70 1339:451 JLINK_Go() -- CPU_ReadMem(4 bytes @ 0xE0001000) (0001ms, 0441ms total)
T6E70 1339:452 JLINK_IsHalted()  returns FALSE (0000ms, 0441ms total)
T6E70 1339:459 JLINK_IsHalted() -- CPU_ReadMem(2 bytes @ 0x20000000)  returns TRUE (0003ms, 0444ms total)
T6E70 1339:462 JLINK_ReadReg(R15 (PC))  returns 0x20000000 (0000ms, 0441ms total)
T6E70 1339:462 JLINK_ClrBPEx(BPHandle = 0x0000000B)  returns 0x00 (0000ms, 0441ms total)
T6E70 1339:462 JLINK_ReadReg(R0)  returns 0x00000000 (0000ms, 0441ms total)
T6E70 1339:463 JLINK_WriteMem(0x20000180, 0x0280 Bytes, ...) - Data: DB 10 A4 EB C3 03 0B B1 01 23 00 E0 00 23 1A 44 ... -- CPU_WriteMem(640 bytes @ 0x20000180)  returns 0x280 (0005ms, 0446ms total)
T6E70 1339:468 JLINK_WriteMem(0x20000400, 0x0180 Bytes, ...) - Data: CD E9 01 46 00 95 FF F7 41 FF 25 E0 10 2C 09 D1 ... -- CPU_WriteMem(384 bytes @ 0x20000400)  returns 0x180 (0003ms, 0449ms total)
T6E70 1339:471 JLINK_WriteReg(R0, 0x08001000)  returns 0x00 (0000ms, 0449ms total)
T6E70 1339:471 JLINK_WriteReg(R1, 0x00000400)  returns 0x00 (0000ms, 0449ms total)
T6E70 1339:471 JLINK_WriteReg(R2, 0x20000180)  returns 0x00 (0000ms, 0449ms total)
T6E70 1339:471 JLINK_WriteReg(R3, 0x00000000)  returns 0x00 (0000ms, 0449ms total)
T6E70 1339:471 JLINK_WriteReg(R4, 0x00000000)  returns 0x00 (0000ms, 0449ms total)
T6E70 1339:471 JLINK_WriteReg(R5, 0x00000000)  returns 0x00 (0000ms, 0449ms total)
T6E70 1339:471 JLINK_WriteReg(R6, 0x00000000)  returns 0x00 (0000ms, 0449ms total)
T6E70 1339:471 JLINK_WriteReg(R7, 0x00000000)  returns 0x00 (0000ms, 0449ms total)
T6E70 1339:471 JLINK_WriteReg(R8, 0x00000000)  returns 0x00 (0000ms, 0449ms total)
T6E70 1339:471 JLINK_WriteReg(R9, 0x2000017C)  returns 0x00 (0000ms, 0449ms total)
T6E70 1339:471 JLINK_WriteReg(R10, 0x00000000)  returns 0x00 (0000ms, 0449ms total)
T6E70 1339:471 JLINK_WriteReg(R11, 0x00000000)  returns 0x00 (0000ms, 0449ms total)
T6E70 1339:471 JLINK_WriteReg(R12, 0x00000000)  returns 0x00 (0000ms, 0449ms total)
T6E70 1339:471 JLINK_WriteReg(R13 (SP), 0x20001000)  returns 0x00 (0000ms, 0449ms total)
T6E70 1339:471 JLINK_WriteReg(R14, 0x20000001)  returns 0x00 (0000ms, 0449ms total)
T6E70 1339:471 JLINK_WriteReg(R15 (PC), 0x20000108)  returns 0x00 (0000ms, 0449ms total)
T6E70 1339:471 JLINK_WriteReg(XPSR, 0x01000000)  returns 0x00 (0000ms, 0449ms total)
T6E70 1339:471 JLINK_WriteReg(MSP, 0x20001000)  returns 0x00 (0000ms, 0449ms total)
T6E70 1339:471 JLINK_WriteReg(PSP, 0x20001000)  returns 0x00 (0000ms, 0449ms total)
T6E70 1339:471 JLINK_WriteReg(CFBP, 0x00000000)  returns 0x00 (0000ms, 0449ms total)
T6E70 1339:471 JLINK_SetBPEx(Addr = 0x20000000, Type = 0xFFFFFFF2)  returns 0x0000000C (0000ms, 0449ms total)
T6E70 1339:471 JLINK_Go() -- CPU_ReadMem(4 bytes @ 0xE0001000) (0002ms, 0451ms total)
T6E70 1339:473 JLINK_IsHalted()  returns FALSE (0000ms, 0451ms total)
T6E70 1339:484 JLINK_IsHalted() -- CPU_ReadMem(2 bytes @ 0x20000000)  returns TRUE (0003ms, 0454ms total)
T6E70 1339:487 JLINK_ReadReg(R15 (PC))  returns 0x20000000 (0000ms, 0451ms total)
T6E70 1339:487 JLINK_ClrBPEx(BPHandle = 0x0000000C)  returns 0x00 (0000ms, 0451ms total)
T6E70 1339:487 JLINK_ReadReg(R0)  returns 0x00000000 (0000ms, 0451ms total)
T6E70 1339:491 JLINK_WriteMem(0x20000180, 0x0280 Bytes, ...) - Data: A8 EB 00 00 A0 42 06 D1 DD F8 00 80 0A F1 01 00 ... -- CPU_WriteMem(640 bytes @ 0x20000180)  returns 0x280 (0005ms, 0456ms total)
